!Keysight Technologies,N5224B,MY57181201,A.12.70.07
!Date: Wednesday, October 26, 2022 13:47:50
!Correction: S11(Full 2 Port(1,2)) 
!S21(Full 2 Port(1,2)) 
!S12(Full 2 Port(1,2)) 
!S22(Full 2 Port(1,2)) 
!S2P File: Measurements: S11, S21, S12, S22:
# Hz S  dB   R 50
10000000 -42.139332 -89.196716 -0.0048116227 -2.1044943 -0.010287059 -2.0812047 -41.302231 -85.912697
39950000 -30.327295 -102.31921 -0.016498413 -8.2883339 -0.016574299 -8.2896442 -30.134295 -93.938911
69900000 -25.896955 -111.36211 -0.024065912 -14.46284 -0.023875434 -14.468657 -25.580902 -99.566208
99850000 -23.239187 -118.77979 -0.033674702 -20.651909 -0.029683672 -20.617496 -22.979784 -105.57346
129800000 -21.323343 -125.14626 -0.044417489 -26.828062 -0.03898 -26.798374 -21.222734 -112.51946
159750000 -19.796671 -131.14124 -0.058274254 -33.001045 -0.049669921 -32.940811 -19.986017 -120.8105
189700000 -18.52553 -136.88405 -0.074832365 -39.098534 -0.061347269 -39.085918 -18.948013 -129.75356
219650000 -17.376446 -143.33147 -0.074857771 -45.229008 -0.077413753 -45.174339 -17.946507 -139.39789
249600000 -16.396397 -150.2027 -0.10337177 -51.359158 -0.091841459 -51.352608 -16.945419 -148.74055
279550000 -15.595186 -157.52736 -0.10965629 -57.539822 -0.1097559 -57.409046 -15.941776 -157.32739
309500000 -14.984385 -165.02364 -0.12178141 -63.644421 -0.11811393 -63.591171 -15.041638 -164.82368
339450000 -14.506336 -172.52818 -0.13615051 -69.802086 -0.15735243 -69.648293 -14.260712 -171.36954
369400000 -14.182503 179.99214 -0.18255706 -75.940918 -0.13843118 -75.788673 -13.701077 -177.12241
399350000 -13.964348 172.64088 -0.17932849 -81.916656 -0.17999172 -81.975624 -13.324247 177.45508
429300000 -13.80118 165.96346 -0.20825891 -87.92128 -0.18561496 -87.987724 -13.167988 171.75275
459250000 -13.722187 159.06407 -0.18088554 -93.776291 -0.20428418 -94.075813 -13.201536 165.85951
489200000 -13.677465 152.35236 -0.16527453 -100.10621 -0.18650822 -99.985756 -13.356958 159.43668
519150000 -13.696095 145.32256 -0.15504916 -106.24207 -0.15357046 -106.38546 -13.606277 152.08252
549100000 -13.790086 138.33023 -0.15767482 -112.37331 -0.18109873 -112.45161 -13.886982 144.05219
579050000 -13.952623 131.11581 -0.1241776 -118.66142 -0.14534263 -118.59686 -14.161023 135.45677
609000000 -14.227144 123.44984 -0.15300377 -124.99834 -0.14139794 -124.71975 -14.471725 127.29572
638950000 -14.668941 115.86122 -0.12366895 -131.05208 -0.087678142 -131.06514 -14.672513 119.19078
668900000 -15.24608 108.16866 -0.12225141 -137.52237 -0.10305074 -137.41479 -14.980104 111.56638
698850000 -15.992181 100.47089 -0.098090768 -143.60721 -0.057212457 -143.59377 -15.451764 104.54272
728800000 -16.953552 92.530556 -0.071125776 -150.12421 -0.040206838 -150.22316 -16.153698 98.079346
758750000 -18.182138 84.483002 -0.040845521 -156.38174 -0.030855928 -156.55382 -17.182735 92.005333
788700000 -19.79014 76.026947 0.011494978 -163.1541 -0.0017524834 -163.24219 -18.650642 86.312546
818650000 -21.98752 67.141937 0.0090680821 -169.8215 -0.0024011473 -169.81227 -20.691698 81.156837
848600000 -25.251976 56.818344 0.024889518 -176.47102 0.015574837 -176.50121 -23.675137 77.091934
878550000 -31.046844 41.469543 0.040143464 176.72906 0.026058363 176.75336 -28.589001 77.353882
908500000 -42.665054 -56.432007 0.037531465 169.86708 0.031822059 169.86961 -38.253826 117.27266
938450000 -29.630823 -128.42599 0.028432582 162.95866 0.035349283 163.00117 -30.862562 -158.66856
968400000 -23.894043 -143.129 0.0062753321 156.1535 0.018454151 155.87376 -24.438393 -154.37863
998350000 -20.409901 -153.60426 0.019356357 149.04276 -0.012892129 149.02763 -20.576235 -158.19933
1028300000 -17.920437 -163.06384 -0.041189995 141.97536 -0.042000066 141.78667 -17.800228 -164.17284
1058250000 -15.98977 -172.02951 -0.039066643 134.72066 -0.13274308 135.19421 -15.631633 -170.73788
1088200000 -14.473827 179.01744 -0.20474909 127.43248 -0.05786036 128.2065 -13.918268 -177.95238
1118150000 -13.167737 170.45949 -0.23257259 121.18772 -0.15873995 120.66286 -12.444804 174.8156
1148100000 -12.073046 161.8596 -0.23119803 113.78129 -0.15374425 113.80225 -11.217744 167.22682
1178050000 -11.143201 153.16501 -0.30274564 106.67017 -0.26248053 105.59756 -10.180168 159.31473
1208000000 -10.344219 144.64081 -0.34235182 99.458832 -0.4427321 99.317451 -9.2646828 151.39644
1237950000 -9.6418104 135.93922 -0.4237164 91.913498 -0.34112749 91.862053 -8.4293814 143.28833
1267900000 -9.0362768 127.23434 -0.50480485 85.514992 -0.52186668 83.502113 -7.6673565 135.22946
1297850000 -8.5504351 118.7758 -0.32891461 76.725151 -0.77574664 76.628098 -6.9985304 127.52328
1327800000 -8.0671892 110.23682 -0.85563606 68.433617 -0.79828173 70.324455 -6.3204269 119.86712
1357750000 -7.6715379 101.77082 -0.78031892 63.358017 -0.88071835 62.008522 -5.7367482 112.38182
1387700000 -7.2899885 93.497284 -0.93653142 53.79718 -1.1489267 56.51226 -5.2025466 105.06956
1417650000 -6.9944243 85.226418 -1.2006363 48.461872 -0.70975494 49.125229 -4.795187 97.671455
1447600000 -6.6661892 76.791664 -1.0812339 41.074009 -1.0417552 38.959332 -4.4183626 89.984955
1477550000 -6.3769236 68.358688 -1.0337642 33.141106 -1.1301314 32.958752 -4.1250653 82.027557
1507500000 -6.1174111 59.891716 -1.2492442 23.548899 -1.3472265 23.035395 -3.9059091 73.806709
1537450000 -5.8276906 51.011044 -1.5182152 16.98365 -1.6879103 18.831909 -3.6688964 65.020668
1567400000 -5.5781164 41.984421 -1.5675639 9.2719345 -1.1903954 8.90238 -3.4520929 56.050846
1597350000 -5.3548408 32.709888 -1.4296774 1.0773969 -1.9819124 -0.79757285 -3.2207072 46.880455
1627300000 -5.094461 23.237795 -1.8821416 -10.347882 -2.0227494 -6.1575003 -2.9055438 37.670685
1657250000 -4.8736329 13.461106 -2.2595274 -15.126854 -2.4034896 -15.400253 -2.5925934 28.327085
1687200000 -4.6394629 3.5699899 -2.2749829 -25.46097 -2.4756029 -19.246647 -2.2564526 18.918819
1717150000 -4.446075 -6.2937384 -2.6994638 -30.095091 -1.9662037 -29.514511 -1.982155 9.5268288
1747100000 -4.1564384 -16.634785 -2.0917957 -41.105564 -2.208751 -41.787529 -1.6523446 -0.48940408
1777050000 -3.8997176 -27.013391 -2.8318157 -52.242355 -2.9830825 -51.555103 -1.3862787 -10.869079
1807000000 -3.630703 -37.664928 -3.1313257 -60.224957 -2.9977913 -56.571743 -1.1472461 -21.919796
1836950000 -3.3390529 -48.38356 -3.2762129 -68.143723 -2.943624 -71.133141 -0.89205229 -33.365105
1866900000 -3.0625856 -59.233887 -3.4276748 -81.521141 -3.8969059 -78.725891 -0.62819451 -45.241787
1896850000 -2.7882302 -70.143562 -4.3148947 -89.803879 -3.5801806 -90.997047 -0.32941046 -57.234676
1926800000 -2.5096407 -80.948509 -4.5969877 -102.11663 -5.2692819 -102.76674 0.014747101 -69.045586
1956750000 -2.2422113 -91.912224 -6.024178 -108.65947 -5.2999916 -105.53945 0.38719872 -80.757339
1986700000 -1.9896024 -102.52364 -5.9168501 -115.55614 -5.9624481 -118.83084 0.76866311 -91.932655
2016650000 -1.7672251 -112.98093 -6.4370828 -123.95703 -6.0703259 -122.30357 1.1159799 -102.82549
2046600000 -1.5403645 -123.41562 -6.3415551 -139.71143 -6.2145863 -141.90056 1.4398774 -113.72257
2076550000 -1.3606523 -133.3745 -8.7086239 -150.46727 -8.3319883 -148.72888 1.6942062 -124.19613
2106500000 -1.1992166 -143.1273 -8.9199524 -152.78746 -8.3299274 -155.19197 1.8882887 -134.66187
2136450000 -1.0600667 -152.64267 -9.7792406 -165.25627 -9.4754057 -166.36598 2.0353916 -144.95964
2166400000 -0.94394177 -161.83035 -10.970195 -174.21909 -10.188087 -175.19278 2.1467285 -154.94666
2196350000 -0.84798074 -170.65019 -12.47478 -177.37798 -11.723979 174.9581 2.2418351 -164.54974
2226300000 -0.7655772 -179.14481 -12.356215 175.19197 -12.804239 168.14778 2.3222895 -173.69267
2256250000 -0.69392645 172.72173 -14.204532 167.59952 -14.836212 162.38136 2.3953881 177.71556
2286200000 -0.63871074 164.94205 -13.78327 164.84724 -14.952476 164.67671 2.4523292 169.66901
2316150000 -0.58686131 157.46072 -15.040686 149.49657 -15.637674 149.09822 2.499526 162.0777
2346100000 -0.54519129 150.34058 -15.951385 144 -17.333111 148.3457 2.5241249 154.94359
2376050000 -0.51043743 143.5186 -17.904743 132.56335 -17.465591 136.67618 2.5291314 148.16563
2406000000 -0.47929382 137.00844 -19.054523 135.56961 -20.127357 132.03114 2.5176821 141.70642
2435950000 -0.45375931 130.75534 -19.668106 126.87531 -19.860767 131.84361 2.5014706 135.49588
2465900000 -0.43211249 124.73367 -20.587637 124.48278 -21.572844 118.88999 2.4868982 129.49757
2495850000 -0.41243723 118.9203 -21.577068 114.65672 -22.373949 122.44775 2.4847512 123.69347
2525800000 -0.3953732 113.2916 -22.87372 114.20729 -22.881239 107.59642 2.5029988 118.04232
2555750000 -0.37988853 107.82846 -23.667231 108.09679 -25.630428 108.0349 2.5437706 112.51081
2585700000 -0.3676728 102.51584 -24.088261 109.50594 -25.489695 111.09882 2.6055579 107.05089
2615650000 -0.35569069 97.351479 -24.263947 92.402527 -26.005816 105.4256 2.6817577 101.63138
2645600000 -0.34588248 92.326355 -27.219032 92.122246 -26.472591 99.546318 2.7608516 96.222717
2675550000 -0.3366732 87.422562 -26.697466 91.162773 -27.945276 96.239868 2.8273752 90.818771
2705500000 -0.3285321 82.63961 -28.38126 82.2342 -27.67469 96.118408 2.8784904 85.443695
2735450000 -0.32371491 77.967499 -29.231222 80.958031 -28.681114 83.819176 2.9041314 80.128204
2765400000 -0.31885672 73.421257 -30.608484 80.140793 -29.746639 86.31353 2.9116261 74.915108
2795350000 -0.31373557 68.976494 -30.167337 78.053581 -29.769135 76.032722 2.9045622 69.87249
2825300000 -0.30601978 64.611992 -31.661871 67.797813 -31.604692 74.223587 2.8873689 65.023254
2855250000 -0.29734433 60.323971 -32.560589 69.569351 -31.155884 69.055382 2.8716853 60.4114
2885200000 -0.29174075 56.11953 -33.247074 67.764999 -33.498779 58.604424 2.8615651 55.995026
2915150000 -0.28603789 52.004574 -32.482052 64.090904 -33.864918 66.628769 2.8603454 51.788105
2945100000 -0.281257 47.959984 -34.079361 47.28196 -33.957485 54.19949 2.8616271 47.72364
2975050000 -0.27644512 44.012672 -35.471577 52.570862 -35.62524 56.158817 2.8626869 43.778839
3005000000 -0.27157396 40.140682 -35.823689 43.088909 -34.866749 51.730804 2.863704 39.886135
3034950000 -0.26226631 36.328575 -37.327271 46.308231 -36.202175 42.689198 2.8552778 35.948051
3064900000 -0.25839198 32.561264 -36.735008 41.313709 -36.630108 42.840309 2.825063 31.962629
3094850000 -0.25760457 28.834476 -37.827991 33.729427 -36.980064 36.30323 2.7762852 27.94124
3124800000 -0.26301548 25.18108 -38.667591 29.492535 -37.243542 30.794239 2.7175407 23.922821
3154750000 -0.270556 21.597807 -39.367508 29.410122 -38.555828 20.770588 2.6576662 19.94256
3184700000 -0.27257937 18.052128 -39.26881 20.50131 -39.420689 23.533731 2.6122105 16.002779
3214650000 -0.27506772 14.507044 -40.934994 17.950989 -39.26783 12.752743 2.5847487 12.136144
3244600000 -0.27655753 10.973075 -40.293427 14.180481 -41.092323 9.3908587 2.582901 8.3532162
3274550000 -0.27991131 7.4454074 -41.755112 4.8437147 -40.961285 4.9422359 2.6031067 4.6487827
3304500000 -0.27900192 3.9191527 -41.578171 3.1792917 -42.682667 -2.049238 2.6395648 1.0165899
3334450000 -0.28014764 0.42486522 -42.768978 -8.0307903 -42.007595 3.1854606 2.6791263 -2.6010261
3364400000 -0.28363499 -3.0297098 -42.752899 -7.0550733 -41.372574 -18.568623 2.7024424 -6.1985059
3394350000 -0.28196931 -6.4365067 -42.62104 -23.311392 -43.942841 -24.709152 2.6987317 -9.8101978
3424300000 -0.27751747 -9.8102465 -44.730114 -33.794292 -43.894123 -29.808783 2.6577339 -13.445852
3454250000 -0.27238169 -13.175406 -45.951832 -35.428726 -45.216141 -41.079903 2.5799084 -17.125954
3484200000 -0.26874879 -16.506863 -46.107895 -38.132725 -46.049702 -42.411423 2.4742017 -20.833748
3514150000 -0.26764011 -19.83375 -46.899483 -47.751095 -46.229969 -48.761177 2.3559442 -24.569546
3544100000 -0.27308989 -23.12545 -47.05917 -45.431488 -46.277321 -55.747391 2.247669 -28.331774
3574050000 -0.2800591 -26.377205 -46.139996 -64.148468 -47.167809 -70.615089 2.1661916 -32.102962
3604000000 -0.28414118 -29.599575 -48.386063 -75.039406 -48.424732 -74.437454 2.1263895 -35.886677
3633950000 -0.28717729 -32.839901 -48.508541 -82.722267 -48.861637 -85.640137 2.1335714 -39.650909
3663900000 -0.28897473 -36.095306 -50.169392 -93.721184 -50.319637 -89.71508 2.1793728 -43.423656
3693850000 -0.29160911 -39.355526 -51.288525 -96.023117 -50.532623 -95.237328 2.2468195 -47.138
3723800000 -0.2935729 -42.629204 -52.348694 -105.0586 -52.6992 -107.94965 2.3143682 -50.7952
3753750000 -0.29640949 -45.873417 -53.579529 -107.6032 -53.652393 -100.86234 2.3706343 -54.334167
3783700000 -0.29743564 -49.134182 -54.914913 -101.36778 -53.833191 -104.69704 2.4016221 -57.79567
3813650000 -0.30150878 -52.374653 -53.368637 -101.92326 -54.448971 -101.38447 2.3957589 -61.125782
3843600000 -0.30552244 -55.598183 -53.991249 -103.75583 -52.82431 -96.866089 2.359072 -64.360138
3873550000 -0.30639547 -58.759045 -52.148602 -101.33895 -52.203167 -111.40553 2.3001668 -67.518936
3903500000 -0.30372885 -61.928677 -50.653324 -120.95937 -51.505047 -115.08674 2.2328641 -70.658302
3933450000 -0.30022311 -65.121788 -51.361607 -128.35281 -50.999992 -130.28729 2.1705885 -73.806404
3963400000 -0.29918978 -68.331375 -50.571598 -140.98199 -51.127213 -140.06047 2.1382027 -77.027802
3993350000 -0.30120674 -71.538101 -51.79068 -152.83981 -51.730186 -151.45052 2.131053 -80.360374
4023300000 -0.30550078 -74.741249 -51.92292 -159.62311 -51.907787 -158.48962 2.1497498 -83.762932
4053250000 -0.30724043 -77.952316 -52.261337 -171.04851 -52.045139 -172.89285 2.186362 -87.191574
4083200000 -0.30923179 -81.156189 -54.340439 178.01503 -54.916603 -179.18996 2.2286034 -90.633316
4113150000 -0.30971831 -84.382179 -55.390213 -174.91075 -55.033749 -172.41457 2.2613406 -94.037796
4143100000 -0.30866879 -87.616119 -54.797058 -179.79059 -55.37653 179.31577 2.2753224 -97.36792
4173050000 -0.31003931 -90.852989 -56.060558 179.14082 -55.580975 -174.21178 2.2639072 -100.5827
4203000000 -0.3127543 -94.095566 -54.890533 175.57736 -54.47337 172.30438 2.2356668 -103.70388
4232950000 -0.31658584 -97.329483 -56.710308 163.09734 -56.850143 165.7052 2.1965604 -106.75471
4262900000 -0.32073948 -100.55022 -58.87241 171.37375 -57.735401 172.25447 2.1625524 -109.8082
4292850000 -0.32559842 -103.76061 -58.324272 -178.32495 -58.154778 179.48268 2.1377096 -112.93199
4322800000 -0.32845375 -106.97723 -57.033676 -170.59482 -56.994522 -168.81366 2.1374345 -116.16795
4352750000 -0.32967371 -110.19846 -54.704437 -176.21565 -53.851166 -175.11514 2.1560912 -119.55729
4382700000 -0.33249855 -113.43996 -53.693333 169.47496 -53.455097 166.70886 2.1917148 -123.08288
4412650000 -0.33717641 -116.67526 -54.22649 153.42755 -53.828407 152.2785 2.2343898 -126.65847
4442600000 -0.34304586 -119.88789 -55.345062 146.66508 -55.424587 143.85284 2.2693818 -130.27472
4472550000 -0.34732315 -123.08205 -56.014793 136.00638 -55.977695 136.40833 2.2816174 -133.85583
4502500000 -0.34779492 -126.27498 -58.89373 126.97656 -58.927631 125.50993 2.2612667 -137.35246
4532450000 -0.34742013 -129.48068 -61.806229 138.50745 -61.658241 140.46458 2.2078159 -140.73831
4562400000 -0.34901765 -132.69423 -62.600689 155.77977 -61.869564 154.49767 2.1283884 -144.04811
4592350000 -0.34683439 -135.91252 -61.102188 172.88988 -61.030895 171.95949 2.0331178 -147.33383
4622300000 -0.35112232 -139.16548 -58.999599 169.72951 -58.624985 168.57619 1.9358686 -150.63034
4652250000 -0.35578701 -142.43358 -57.964993 166.72255 -58.137428 163.40021 1.846311 -154.03453
4682200000 -0.36248416 -145.70358 -57.748623 161.72549 -57.608341 161.0618 1.7788578 -157.53044
4712150000 -0.36971751 -148.99736 -57.563751 157.70055 -57.599617 154.84691 1.7341 -161.15501
4742100000 -0.37606555 -152.28671 -57.814274 153.97345 -57.769592 154.97075 1.7080139 -164.8456
4772050000 -0.38009766 -155.5941 -57.351299 149.82587 -57.350685 147.01843 1.6918452 -168.53922
4802000000 -0.38113108 -158.89111 -57.459534 141.99794 -57.993164 141.51044 1.6740165 -172.13216
4831950000 -0.37918392 -162.20114 -58.659943 136.83025 -58.66851 137.57448 1.6442958 -175.55609
4861900000 -0.37784818 -165.49449 -59.791702 137.99023 -59.972916 139.53395 1.5929235 -178.76424
4891850000 -0.37840784 -168.77306 -60.434944 142.65204 -60.246555 144.03433 1.5165966 178.23196
4921800000 -0.37819797 -172.03757 -61.085308 143.79382 -61.136681 142.66412 1.4213066 175.38611
4951750000 -0.37976736 -175.27681 -61.390575 149.97942 -61.420044 151.55991 1.3116431 172.59773
4981700000 -0.38478792 -178.5256 -61.453838 158.228 -61.045326 156.3506 1.1983662 169.73695
5011650000 -0.39335862 178.21654 -60.900963 160.54982 -60.707333 160.52707 1.0909412 166.68291
5041600000 -0.40813985 174.9296 -60.042095 162.55919 -60.118462 162.87672 0.97704411 163.32503
5071550000 -0.42943662 171.61784 -59.952732 155.84161 -59.946285 157.81772 0.81208879 159.64317
5101500000 -0.44786513 168.34193 -61.959118 164.0168 -61.916428 166.11635 0.50790244 157.10844
5131450000 -0.46016398 164.99452 -59.641678 174.43576 -59.72245 173.75023 0.66542584 155.71643
5161400000 -0.46824682 161.59424 -58.955147 168.28944 -58.789009 167.82018 0.83302295 151.94672
5191350000 -0.47511548 158.16068 -59.344845 165.99005 -59.212254 166.10181 0.88028961 148.19395
5221300000 -0.4750829 154.7063 -60.473572 170.98578 -60.150223 168.81934 0.88783425 144.74803
5251250000 -0.47379649 151.25551 -60.161037 -177.15822 -60.073338 -177.49121 0.87253118 141.59573
5281200000 -0.46812448 147.80045 -59.54937 -167.18016 -59.323624 -166.80544 0.84241325 138.69107
5311150000 -0.46110496 144.37289 -58.254959 -156.70932 -58.215473 -157.55908 0.80377424 135.92253
5341100000 -0.45693043 140.95445 -55.728798 -149.81183 -56.046356 -149.07262 0.76218033 133.19077
5371050000 -0.45762554 137.55789 -53.503796 -149.73418 -53.541798 -149.57953 0.7214433 130.36623
5401000000 -0.46645457 134.153 -51.430687 -152.79524 -51.996464 -151.63513 0.68935204 127.36652
5430950000 -0.48620626 130.76897 -50.139381 -157.02296 -49.733727 -154.05379 0.66383547 124.12335
5460900000 -0.51535231 127.38494 -48.43264 -158.1814 -48.303917 -160.16751 0.64863724 120.64669
5490850000 -0.55401677 123.99707 -46.603985 -165.55823 -46.688988 -164.37401 0.63728911 116.99838
5520800000 -0.59801459 120.59388 -45.288124 -171.90843 -45.023552 -174.41876 0.63058794 113.26746
5550750000 -0.64741582 117.17931 -43.933922 179.23906 -44.187485 177.72188 0.62480408 109.58384
5580700000 -0.70059705 113.77396 -42.76162 170.10814 -42.790375 169.40224 0.62240583 106.03052
5610650000 -0.75615638 110.38998 -42.182991 158.90916 -42.009991 158.0197 0.61983991 102.67759
5640600000 -0.8007924 107.06707 -41.578579 153.05949 -41.588737 148.84337 0.62010318 99.521202
5670550000 -0.83149958 103.73717 -41.246983 139.55699 -41.715607 140.01338 0.62485445 96.53022
5700500000 -0.85487139 100.25961 -41.789783 136.42873 -41.607609 136.39153 0.63347536 93.615921
5730450000 -0.90450418 96.704056 -40.915688 133.36197 -41.503704 132.85831 0.6421445 90.670486
5760400000 -0.97817302 93.181137 -40.524292 128.30161 -40.600105 133.92978 0.63993633 87.623497
5790350000 -1.0741439 89.757774 -39.115089 123.81525 -38.763683 123.20155 0.62665617 84.468399
5820300000 -1.1829172 86.437271 -38.489952 113.259 -38.926243 113.07985 0.61295354 81.114105
5850250000 -1.3058188 83.162369 -37.817574 103.17313 -37.888435 107.43411 0.59164006 77.560501
5880200000 -1.4538728 79.956009 -37.791706 92.967033 -37.687981 93.379738 0.56328398 73.826401
5910150000 -1.6150284 77.065643 -37.428417 83.290367 -37.673649 86.922012 0.52537245 70.003105
5940100000 -1.7495662 74.451859 -38.189247 72.22319 -37.43438 72.329094 0.48093382 66.172157
5970050000 -1.8300589 71.75071 -38.312088 66.927132 -38.858185 62.67366 0.43905094 62.411709
6000000000 -1.892593 68.968925 -39.464249 57.971485 -39.493858 61.986481 0.40118954 58.693283
